T3EE0 000:004.352   SEGGER J-Link V7.58a Log File
T3EE0 000:004.510   DLL Compiled: Nov 11 2021 16:50:12
T3EE0 000:004.516   Logging started @ 2026-05-27 01:54
T3EE0 000:004.520 - 4.523ms
T3EE0 000:004.529 JLINK_SetWarnOutHandler(...)
T3EE0 000:004.535 - 0.008ms
T3EE0 000:004.557 JLINK_OpenEx(...)
T3EE0 000:008.195   Firmware: J-Link V9 compiled May  7 2021 16:26:12
T3EE0 000:009.499   Firmware: J-Link V9 compiled May  7 2021 16:26:12
T3EE0 000:009.772   Decompressing FW timestamp took 151 us
T3EE0 000:022.314   Hardware: V9.40
T3EE0 000:022.336   S/N: 69409962
T3EE0 000:022.343   OEM: SEGGER
T3EE0 000:022.350   Feature(s): RDI, GDB, FlashDL, FlashBP, JFlash
T3EE0 000:025.110   TELNET listener socket opened on port 19021
T3EE0 000:025.277   WEBSRV WEBSRV_Init(): Starting webserver thread(s)
T3EE0 000:025.451   WEBSRV Webserver running on local port 19080
T3EE0 000:032.535 - 28.007ms returns "O.K."
T3EE0 000:032.608 JLINK_GetEmuCaps()
T3EE0 000:032.621 - 0.017ms returns 0xB9FF7BBF
T3EE0 000:032.652 JLINK_TIF_GetAvailable(...)
T3EE0 000:033.244 - 0.604ms
T3EE0 000:033.262 JLINK_SetErrorOutHandler(...)
T3EE0 000:033.267 - 0.007ms
T3EE0 000:033.286 JLINK_ExecCommand("ProjectFile = "C:\Users\Administrator\Desktop\Embeded Test\fire-alarm\mdk\JLinkSettings.ini"", ...). 
T3EE0 000:041.010   Ref file found at: C:\Keil_v5\ARM\Segger\JLinkDevices.ref
T3EE0 000:041.148   XML referenced by ref file: C:\Program Files\SEGGER\JLink\JLinkDevices.xml
T3EE0 000:041.767   C:\Program Files\SEGGER\JLink\JLinkDevices.xml evaluated successfully.
T3EE0 000:057.086   
  ***** Error: 
T3EE0 000:057.104   Error while loading flash algo ELF file. No file specified
T3EE0 000:057.112 - 23.828ms returns 0x00
T3EE0 000:062.718 JLINK_ExecCommand("Device = HC32L110C6PA", ...). 
T3EE0 000:062.888   
  ***** Error: 
T3EE0 000:062.898   Error while loading flash algo ELF file. No file specified
T3EE0 000:062.908 - 0.148ms returns 0xFFFFFFFF
T3EE0 000:068.148 JLINK_ExecCommand("DisableConnectionTimeout", ...). 
T3EE0 000:068.176 - 0.005ms returns 0x01
T3EE0 000:068.185 JLINK_GetHardwareVersion()
T3EE0 000:068.192 - 0.010ms returns 94000
T3EE0 000:068.201 JLINK_GetDLLVersion()
T3EE0 000:068.213 - 0.014ms returns 75801
T3EE0 000:068.219 JLINK_GetOEMString(...)
T3EE0 000:068.227 JLINK_GetFirmwareString(...)
T3EE0 000:068.232 - 0.008ms
T3EE0 000:077.683 JLINK_GetDLLVersion()
T3EE0 000:077.713 - 0.034ms returns 75801
T3EE0 000:077.722 JLINK_GetCompileDateTime()
T3EE0 000:077.728 - 0.009ms
T3EE0 000:084.245 JLINK_GetFirmwareString(...)
T3EE0 000:084.268 - 0.026ms
T3EE0 000:086.425 JLINK_GetHardwareVersion()
T3EE0 000:086.441 - 0.018ms returns 94000
T3EE0 000:089.805 JLINK_GetSN()
T3EE0 000:089.827 - 0.025ms returns 69409962
T3EE0 000:092.194 JLINK_GetOEMString(...)
T3EE0 000:097.291 JLINK_TIF_Select(JLINKARM_TIF_SWD)
T3EE0 000:099.800 - 2.516ms returns 0x00
T3EE0 000:099.813 JLINK_HasError()
T3EE0 000:099.823 JLINK_SetSpeed(5000)
T3EE0 000:100.301 - 0.482ms
T3EE0 000:100.321 JLINK_GetId()
T3EE0 000:105.963   Found SW-DP with ID 0x0BC11477
T3EE0 000:115.271   DPIDR: 0x0BC11477
T3EE0 000:117.526   Scanning AP map to find all available APs
T3EE0 000:121.341   AP[1]: Stopped AP scan as end of AP map has been reached
T3EE0 000:123.598   AP[0]: AHB-AP (IDR: 0x04770031)
T3EE0 000:125.794   Iterating through AP map to find AHB-AP to use
T3EE0 000:132.940   AP[0]: Core found
T3EE0 000:135.549   AP[0]: AHB-AP ROM base: 0xE00FF000
T3EE0 000:139.138   CPUID register: 0x410CC601. Implementer code: 0x41 (ARM)
T3EE0 000:141.773   Found Cortex-M0 r0p1, Little endian.
T3EE0 000:244.906   -- Max. mem block: 0x00010E60
T3EE0 000:245.808   CPU_ReadMem(4 bytes @ 0xE000EDF0)
T3EE0 000:247.013   CPU_WriteMem(4 bytes @ 0xE000EDF0)
T3EE0 000:248.036   CPU_ReadMem(4 bytes @ 0xE0002000)
T3EE0 000:251.963   FPUnit: 4 code (BP) slots and 0 literal slots
T3EE0 000:251.993   CPU_ReadMem(4 bytes @ 0xE000EDFC)
T3EE0 000:252.887   CPU_WriteMem(4 bytes @ 0xE000EDFC)
T3EE0 000:253.697   CPU_ReadMem(4 bytes @ 0xE0001000)
T3EE0 000:254.509   CPU_WriteMem(4 bytes @ 0xE0001000)
T3EE0 000:257.657   CoreSight components:
T3EE0 000:260.349   ROMTbl[0] @ E00FF000
T3EE0 000:260.376   CPU_ReadMem(64 bytes @ 0xE00FF000)
T3EE0 000:261.439   CPU_ReadMem(32 bytes @ 0xE000EFE0)
T3EE0 000:264.873   [0][0]: E000E000 CID B105E00D PID 000BB008 SCS
T3EE0 000:264.897   CPU_ReadMem(32 bytes @ 0xE0001FE0)
T3EE0 000:268.449   [0][1]: E0001000 CID B105E00D PID 000BB00A DWT
T3EE0 000:268.477   CPU_ReadMem(32 bytes @ 0xE0002FE0)
T3EE0 000:272.121   [0][2]: E0002000 CID B105E00D PID 000BB00B FPB
T3EE0 000:272.813 - 172.496ms returns 0x0BC11477
T3EE0 000:272.839 JLINK_GetDLLVersion()
T3EE0 000:272.844 - 0.007ms returns 75801
T3EE0 000:272.850 JLINK_CORE_GetFound()
T3EE0 000:272.868 - 0.020ms returns 0x60000FF
T3EE0 000:272.874 JLINK_GetDebugInfo(0x100 = JLINKARM_ROM_TABLE_ADDR_INDEX)
T3EE0 000:272.882   Value=0xE00FF000
T3EE0 000:272.889 - 0.018ms returns 0
T3EE0 000:275.871 JLINK_GetDebugInfo(0x100 = JLINKARM_ROM_TABLE_ADDR_INDEX)
T3EE0 000:275.898   Value=0xE00FF000
T3EE0 000:275.906 - 0.037ms returns 0
T3EE0 000:275.912 JLINK_GetDebugInfo(0x101 = JLINKARM_DEBUG_INFO_ETM_ADDR_INDEX)
T3EE0 000:275.918   Value=0x00000000
T3EE0 000:275.926 - 0.016ms returns 0
T3EE0 000:275.938 JLINK_ReadMemEx(0xE0041FF0, 0x10 Bytes, Flags = 0x02000004)
T3EE0 000:275.971   CPU_ReadMem(16 bytes @ 0xE0041FF0)
T3EE0 000:276.846   Data:  00 00 00 00 00 00 00 00 00 00 00 00 00 00 00 00
T3EE0 000:276.856 - 0.920ms returns 16 (0x10)
T3EE0 000:276.863 JLINK_GetDebugInfo(0x102 = JLINKARM_DEBUG_INFO_MTB_ADDR_INDEX)
T3EE0 000:276.868   Value=0x00000000
T3EE0 000:276.875 - 0.014ms returns 0
T3EE0 000:276.880 JLINK_GetDebugInfo(0x103 = JLINKARM_DEBUG_INFO_TPIU_ADDR_INDEX)
T3EE0 000:276.890   Value=0x00000000
T3EE0 000:276.896 - 0.018ms returns 0
T3EE0 000:276.901 JLINK_GetDebugInfo(0x104 = JLINKARM_DEBUG_INFO_ITM_ADDR_INDEX)
T3EE0 000:276.906   Value=0xE0000000
T3EE0 000:276.912 - 0.012ms returns 0
T3EE0 000:276.917 JLINK_GetDebugInfo(0x105 = JLINKARM_DEBUG_INFO_DWT_ADDR_INDEX)
T3EE0 000:276.922   Value=0xE0001000
T3EE0 000:276.928 - 0.013ms returns 0
T3EE0 000:276.933 JLINK_GetDebugInfo(0x106 = JLINKARM_DEBUG_INFO_FPB_ADDR_INDEX)
T3EE0 000:276.938   Value=0xE0002000
T3EE0 000:276.944 - 0.013ms returns 0
T3EE0 000:276.949 JLINK_GetDebugInfo(0x107 = JLINKARM_DEBUG_INFO_NVIC_ADDR_INDEX)
T3EE0 000:276.954   Value=0xE000E000
T3EE0 000:276.960 - 0.012ms returns 0
T3EE0 000:276.965 JLINK_GetDebugInfo(0x10C = JLINKARM_DEBUG_INFO_DBG_ADDR_INDEX)
T3EE0 000:276.970   Value=0xE000EDF0
T3EE0 000:276.976 - 0.013ms returns 0
T3EE0 000:276.981 JLINK_GetDebugInfo(0x01 = Unknown)
T3EE0 000:276.986   Value=0x00000000
T3EE0 000:276.992 - 0.013ms returns 0
T3EE0 000:276.997 JLINK_ReadMemU32(0xE000ED00, 0x1 Items)
T3EE0 000:277.005   CPU_ReadMem(4 bytes @ 0xE000ED00)
T3EE0 000:278.032   Data:  01 C6 0C 41
T3EE0 000:278.063   Debug reg: CPUID
T3EE0 000:278.076 - 1.082ms returns 1 (0x1)
T3EE0 000:278.090 JLINK_GetDebugInfo(0x10F = JLINKARM_DEBUG_INFO_HAS_CORTEX_M_SECURITY_EXT_INDEX)
T3EE0 000:278.100   Value=0x00000000
T3EE0 000:278.112 - 0.025ms returns 0
T3EE0 000:278.122 JLINK_HasError()
T3EE0 000:278.133 JLINK_SetResetType(JLINKARM_CM3_RESET_TYPE_NORMAL)
T3EE0 000:278.141 - 0.012ms returns JLINKARM_CM3_RESET_TYPE_NORMAL
T3EE0 000:278.152 JLINK_Reset()
T3EE0 000:278.181   CPU is running
T3EE0 000:278.195   CPU_WriteMem(4 bytes @ 0xE000EDF0)
T3EE0 000:279.143   CPU is running
T3EE0 000:279.177   CPU_WriteMem(4 bytes @ 0xE000EDFC)
T3EE0 000:282.933   Reset: Halt core after reset via DEMCR.VC_CORERESET.
T3EE0 000:287.077   Reset: Reset device via AIRCR.SYSRESETREQ.
T3EE0 000:287.099   CPU is running
T3EE0 000:287.112   CPU_WriteMem(4 bytes @ 0xE000ED0C)
T3EE0 000:342.318   CPU_ReadMem(4 bytes @ 0xE000EDF0)
T3EE0 000:343.448   CPU_ReadMem(4 bytes @ 0xE000EDF0)
T3EE0 000:344.539   CPU is running
T3EE0 000:344.602   CPU_WriteMem(4 bytes @ 0xE000EDF0)
T3EE0 000:345.492   CPU is running
T3EE0 000:345.515   CPU_WriteMem(4 bytes @ 0xE000EDFC)
T3EE0 000:352.341   CPU_ReadMem(4 bytes @ 0xE000EDF0)
T3EE0 000:356.660   CPU_WriteMem(4 bytes @ 0xE0002000)
T3EE0 000:357.661   CPU_ReadMem(4 bytes @ 0xE000EDFC)
T3EE0 000:358.457   CPU_ReadMem(4 bytes @ 0xE0001000)
T3EE0 000:359.242   CPU_WriteMem(4 bytes @ 0xE0001000)
T3EE0 000:360.072 - 81.924ms
T3EE0 000:360.096 JLINK_Halt()
T3EE0 000:360.104 - 0.010ms returns 0x00
T3EE0 000:360.112 JLINK_ReadMemU32(0xE000EDF0, 0x1 Items)
T3EE0 000:360.125   CPU_ReadMem(4 bytes @ 0xE000EDF0)
T3EE0 000:360.986   Data:  03 00 03 00
T3EE0 000:360.997   Debug reg: DHCSR
T3EE0 000:361.005 - 0.896ms returns 1 (0x1)
T3EE0 000:361.020 JLINK_WriteU32_64(0xE000EDF0, 0xA05F0003)
T3EE0 000:361.026   Debug reg: DHCSR
T3EE0 000:361.301   CPU_WriteMem(4 bytes @ 0xE000EDF0)
T3EE0 000:362.086 - 1.071ms returns 0 (0x00000000)
T3EE0 000:362.101 JLINK_WriteU32_64(0xE000EDFC, 0x01000000)
T3EE0 000:362.108   Debug reg: DEMCR
T3EE0 000:362.120   CPU_WriteMem(4 bytes @ 0xE000EDFC)
T3EE0 000:362.924 - 0.825ms returns 0 (0x00000000)
T3EE0 000:374.468 JLINK_GetHWStatus(...)
T3EE0 000:375.173 - 0.711ms returns 0
T3EE0 000:387.274 JLINK_GetNumBPUnits(Type = 0xFFFFFF00)
T3EE0 000:387.298 - 0.026ms returns 0x04
T3EE0 000:387.304 JLINK_GetNumBPUnits(Type = 0xF0)
T3EE0 000:387.309 - 0.006ms returns 0x2000
T3EE0 000:387.315 JLINK_GetNumWPUnits()
T3EE0 000:387.319 - 0.006ms returns 2
T3EE0 000:395.078 JLINK_GetSpeed()
T3EE0 000:395.110 - 0.035ms returns 4000
T3EE0 000:400.568 JLINK_ReadMemU32(0xE000E004, 0x1 Items)
T3EE0 000:400.608   CPU_ReadMem(4 bytes @ 0xE000E004)
T3EE0 000:401.445   Data:  00 00 00 00
T3EE0 000:401.463 - 0.897ms returns 1 (0x1)
T3EE0 000:401.477 JLINK_Halt()
T3EE0 000:401.483 - 0.008ms returns 0x00
T3EE0 000:401.489 JLINK_IsHalted()
T3EE0 000:401.496 - 0.009ms returns TRUE
T3EE0 000:406.343 JLINK_WriteMem(0x20000000, 0x1E0 Bytes, ...)
T3EE0 000:406.360   Data:  00 BE 0A E0 0D 78 2D 06 68 40 08 24 40 00 00 D3 ...
T3EE0 000:406.593   CPU_WriteMem(480 bytes @ 0x20000000)
T3EE0 000:409.897 - 3.562ms returns 0x1E0
T3EE0 000:409.954 JLINK_HasError()
T3EE0 000:409.968 JLINK_WriteReg(R0, 0x00000000)
T3EE0 000:409.991 - 0.027ms returns 0
T3EE0 000:410.001 JLINK_WriteReg(R1, 0x00B71B00)
T3EE0 000:410.010 - 0.012ms returns 0
T3EE0 000:410.019 JLINK_WriteReg(R2, 0x00000001)
T3EE0 000:410.027 - 0.012ms returns 0
T3EE0 000:410.037 JLINK_WriteReg(R3, 0x00000000)
T3EE0 000:410.045 - 0.012ms returns 0
T3EE0 000:410.055 JLINK_WriteReg(R4, 0x00000000)
T3EE0 000:410.063 - 0.012ms returns 0
T3EE0 000:410.072 JLINK_WriteReg(R5, 0x00000000)
T3EE0 000:410.080 - 0.012ms returns 0
T3EE0 000:410.090 JLINK_WriteReg(R6, 0x00000000)
T3EE0 000:410.098 - 0.012ms returns 0
T3EE0 000:410.107 JLINK_WriteReg(R7, 0x00000000)
T3EE0 000:410.116 - 0.012ms returns 0
T3EE0 000:410.125 JLINK_WriteReg(R8, 0x00000000)
T3EE0 000:410.138 - 0.016ms returns 0
T3EE0 000:410.147 JLINK_WriteReg(R9, 0x200001DC)
T3EE0 000:410.155 - 0.012ms returns 0
T3EE0 000:410.164 JLINK_WriteReg(R10, 0x00000000)
T3EE0 000:410.173 - 0.013ms returns 0
T3EE0 000:410.182 JLINK_WriteReg(R11, 0x00000000)
T3EE0 000:410.191 - 0.012ms returns 0
T3EE0 000:410.200 JLINK_WriteReg(R12, 0x00000000)
T3EE0 000:410.208 - 0.012ms returns 0
T3EE0 000:410.217 JLINK_WriteReg(R13 (SP), 0x20001000)
T3EE0 000:410.227 - 0.013ms returns 0
T3EE0 000:410.236 JLINK_WriteReg(R14, 0x20000001)
T3EE0 000:410.245 - 0.012ms returns 0
T3EE0 000:410.254 JLINK_WriteReg(R15 (PC), 0x20000040)
T3EE0 000:410.263 - 0.013ms returns 0
T3EE0 000:410.272 JLINK_WriteReg(XPSR, 0x01000000)
T3EE0 000:410.281 - 0.012ms returns 0
T3EE0 000:410.290 JLINK_WriteReg(MSP, 0x20001000)
T3EE0 000:410.298 - 0.012ms returns 0
T3EE0 000:410.307 JLINK_WriteReg(PSP, 0x20001000)
T3EE0 000:410.316 - 0.012ms returns 0
T3EE0 000:410.325 JLINK_WriteReg(CFBP, 0x00000000)
T3EE0 000:410.333 - 0.012ms returns 0
T3EE0 000:410.342 JLINK_SetBPEx(Addr = 0x20000000, Type = 0xFFFFFFF2)
T3EE0 000:410.359   CPU_ReadMem(2 bytes @ 0x20000000)
T3EE0 000:411.202 - 0.863ms returns 0x00000001
T3EE0 000:411.210 JLINK_Go()
T3EE0 000:411.217   CPU_WriteMem(2 bytes @ 0x20000000)
T3EE0 000:412.092   CPU_ReadMem(4 bytes @ 0xE0001000)
T3EE0 000:412.972   CPU_WriteMem(4 bytes @ 0xE0001000)
T3EE0 000:412.994   CPU_WriteMem(4 bytes @ 0xE0002008)
T3EE0 000:413.004   CPU_WriteMem(4 bytes @ 0xE000200C)
T3EE0 000:413.013   CPU_WriteMem(4 bytes @ 0xE0002010)
T3EE0 000:413.022   CPU_WriteMem(4 bytes @ 0xE0002014)
T3EE0 000:414.785   CPU_WriteMem(4 bytes @ 0xE0001004)
T3EE0 000:419.027 - 7.835ms
T3EE0 000:419.065 JLINK_IsHalted()
T3EE0 000:422.297   CPU_ReadMem(2 bytes @ 0x20000000)
T3EE0 000:422.996 - 3.934ms returns TRUE
T3EE0 000:423.008 JLINK_ReadReg(R15 (PC))
T3EE0 000:423.015 - 0.009ms returns 0x20000000
T3EE0 000:423.021 JLINK_ClrBPEx(BPHandle = 0x00000001)
T3EE0 000:423.026 - 0.007ms returns 0x00
T3EE0 000:423.032 JLINK_ReadReg(R0)
T3EE0 000:423.037 - 0.007ms returns 0x00000000
T3EE0 000:423.485 JLINK_HasError()
T3EE0 000:423.500 JLINK_WriteReg(R0, 0x00000000)
T3EE0 000:423.507 - 0.009ms returns 0
T3EE0 000:423.513 JLINK_WriteReg(R1, 0x00B71B00)
T3EE0 000:423.518 - 0.007ms returns 0
T3EE0 000:423.524 JLINK_WriteReg(R2, 0x00000001)
T3EE0 000:423.529 - 0.007ms returns 0
T3EE0 000:423.534 JLINK_WriteReg(R3, 0x00000000)
T3EE0 000:423.539 - 0.007ms returns 0
T3EE0 000:423.544 JLINK_WriteReg(R4, 0x00000000)
T3EE0 000:423.549 - 0.007ms returns 0
T3EE0 000:423.555 JLINK_WriteReg(R5, 0x00000000)
T3EE0 000:423.560 - 0.007ms returns 0
T3EE0 000:423.565 JLINK_WriteReg(R6, 0x00000000)
T3EE0 000:423.570 - 0.007ms returns 0
T3EE0 000:423.575 JLINK_WriteReg(R7, 0x00000000)
T3EE0 000:423.580 - 0.007ms returns 0
T3EE0 000:423.586 JLINK_WriteReg(R8, 0x00000000)
T3EE0 000:423.591 - 0.007ms returns 0
T3EE0 000:423.596 JLINK_WriteReg(R9, 0x200001DC)
T3EE0 000:423.601 - 0.007ms returns 0
T3EE0 000:423.606 JLINK_WriteReg(R10, 0x00000000)
T3EE0 000:423.611 - 0.007ms returns 0
T3EE0 000:423.617 JLINK_WriteReg(R11, 0x00000000)
T3EE0 000:423.622 - 0.007ms returns 0
T3EE0 000:423.627 JLINK_WriteReg(R12, 0x00000000)
T3EE0 000:423.632 - 0.007ms returns 0
T3EE0 000:423.637 JLINK_WriteReg(R13 (SP), 0x20001000)
T3EE0 000:423.643 - 0.007ms returns 0
T3EE0 000:423.648 JLINK_WriteReg(R14, 0x20000001)
T3EE0 000:423.653 - 0.007ms returns 0
T3EE0 000:423.659 JLINK_WriteReg(R15 (PC), 0x20000102)
T3EE0 000:423.664 - 0.007ms returns 0
T3EE0 000:423.669 JLINK_WriteReg(XPSR, 0x01000000)
T3EE0 000:423.674 - 0.007ms returns 0
T3EE0 000:423.680 JLINK_WriteReg(MSP, 0x20001000)
T3EE0 000:423.685 - 0.007ms returns 0
T3EE0 000:423.690 JLINK_WriteReg(PSP, 0x20001000)
T3EE0 000:423.695 - 0.007ms returns 0
T3EE0 000:423.700 JLINK_WriteReg(CFBP, 0x00000000)
T3EE0 000:423.705 - 0.007ms returns 0
T3EE0 000:423.711 JLINK_SetBPEx(Addr = 0x20000000, Type = 0xFFFFFFF2)
T3EE0 000:423.717 - 0.008ms returns 0x00000002
T3EE0 000:423.723 JLINK_Go()
T3EE0 000:423.734   CPU_ReadMem(4 bytes @ 0xE0001000)
T3EE0 000:424.467   CPU_WriteMem(4 bytes @ 0xE0001000)
T3EE0 000:428.636 - 4.929ms
T3EE0 000:428.660 JLINK_IsHalted()
T3EE0 000:429.446 - 0.813ms returns FALSE
T3EE0 000:429.498 JLINK_HasError()
T3EE0 000:444.532 JLINK_IsHalted()
T3EE0 000:445.258 - 0.732ms returns FALSE
T3EE0 000:445.270 JLINK_HasError()
T3EE0 000:447.539 JLINK_IsHalted()
T3EE0 000:448.330 - 0.799ms returns FALSE
T3EE0 000:448.356 JLINK_HasError()
T3EE0 000:450.514 JLINK_IsHalted()
T3EE0 000:451.371 - 0.863ms returns FALSE
T3EE0 000:451.382 JLINK_HasError()
T3EE0 000:453.512 JLINK_IsHalted()
T3EE0 000:454.222 - 0.715ms returns FALSE
T3EE0 000:454.234 JLINK_HasError()
T3EE0 000:455.507 JLINK_IsHalted()
T3EE0 000:456.238 - 0.736ms returns FALSE
T3EE0 000:456.248 JLINK_HasError()
T3EE0 000:457.508 JLINK_IsHalted()
T3EE0 000:458.217 - 0.712ms returns FALSE
T3EE0 000:458.224 JLINK_HasError()
T3EE0 000:459.506 JLINK_IsHalted()
T3EE0 000:460.217 - 0.718ms returns FALSE
T3EE0 000:460.230 JLINK_HasError()
T3EE0 000:461.506 JLINK_IsHalted()
T3EE0 000:462.218 - 0.717ms returns FALSE
T3EE0 000:462.228 JLINK_HasError()
T3EE0 000:463.512 JLINK_IsHalted()
T3EE0 000:464.283 - 0.778ms returns FALSE
T3EE0 000:464.372 JLINK_HasError()
T3EE0 000:465.511 JLINK_IsHalted()
T3EE0 000:468.699   CPU_ReadMem(2 bytes @ 0x20000000)
T3EE0 000:469.387 - 3.880ms returns TRUE
T3EE0 000:469.396 JLINK_ReadReg(R15 (PC))
T3EE0 000:469.403 - 0.009ms returns 0x20000000
T3EE0 000:469.409 JLINK_ClrBPEx(BPHandle = 0x00000002)
T3EE0 000:469.414 - 0.007ms returns 0x00
T3EE0 000:469.420 JLINK_ReadReg(R0)
T3EE0 000:469.425 - 0.007ms returns 0x00000000
T3EE0 000:521.867 JLINK_HasError()
T3EE0 000:521.904 JLINK_WriteReg(R0, 0x00000001)
T3EE0 000:521.916 - 0.014ms returns 0
T3EE0 000:521.923 JLINK_WriteReg(R1, 0x00B71B00)
T3EE0 000:521.928 - 0.007ms returns 0
T3EE0 000:521.933 JLINK_WriteReg(R2, 0x00000001)
T3EE0 000:521.938 - 0.007ms returns 0
T3EE0 000:521.943 JLINK_WriteReg(R3, 0x00000000)
T3EE0 000:521.948 - 0.007ms returns 0
T3EE0 000:521.954 JLINK_WriteReg(R4, 0x00000000)
T3EE0 000:521.959 - 0.007ms returns 0
T3EE0 000:521.965 JLINK_WriteReg(R5, 0x00000000)
T3EE0 000:521.970 - 0.008ms returns 0
T3EE0 000:521.977 JLINK_WriteReg(R6, 0x00000000)
T3EE0 000:521.982 - 0.007ms returns 0
T3EE0 000:521.988 JLINK_WriteReg(R7, 0x00000000)
T3EE0 000:521.993 - 0.007ms returns 0
T3EE0 000:521.998 JLINK_WriteReg(R8, 0x00000000)
T3EE0 000:522.003 - 0.007ms returns 0
T3EE0 000:522.008 JLINK_WriteReg(R9, 0x200001DC)
T3EE0 000:522.013 - 0.007ms returns 0
T3EE0 000:522.019 JLINK_WriteReg(R10, 0x00000000)
T3EE0 000:522.024 - 0.007ms returns 0
T3EE0 000:522.029 JLINK_WriteReg(R11, 0x00000000)
T3EE0 000:522.034 - 0.007ms returns 0
T3EE0 000:522.039 JLINK_WriteReg(R12, 0x00000000)
T3EE0 000:522.044 - 0.007ms returns 0
T3EE0 000:522.049 JLINK_WriteReg(R13 (SP), 0x20001000)
T3EE0 000:522.056 - 0.008ms returns 0
T3EE0 000:522.061 JLINK_WriteReg(R14, 0x20000001)
T3EE0 000:522.066 - 0.007ms returns 0
T3EE0 000:522.072 JLINK_WriteReg(R15 (PC), 0x200000FE)
T3EE0 000:522.077 - 0.007ms returns 0
T3EE0 000:522.082 JLINK_WriteReg(XPSR, 0x01000000)
T3EE0 000:522.087 - 0.007ms returns 0
T3EE0 000:522.093 JLINK_WriteReg(MSP, 0x20001000)
T3EE0 000:522.098 - 0.007ms returns 0
T3EE0 000:522.103 JLINK_WriteReg(PSP, 0x20001000)
T3EE0 000:522.108 - 0.007ms returns 0
T3EE0 000:522.113 JLINK_WriteReg(CFBP, 0x00000000)
T3EE0 000:522.118 - 0.007ms returns 0
T3EE0 000:522.124 JLINK_SetBPEx(Addr = 0x20000000, Type = 0xFFFFFFF2)
T3EE0 000:522.130 - 0.008ms returns 0x00000003
T3EE0 000:522.136 JLINK_Go()
T3EE0 000:522.151   CPU_ReadMem(4 bytes @ 0xE0001000)
T3EE0 000:523.351   CPU_WriteMem(4 bytes @ 0xE0001000)
T3EE0 000:528.706 - 6.593ms
T3EE0 000:528.754 JLINK_IsHalted()
T3EE0 000:532.236   CPU_ReadMem(2 bytes @ 0x20000000)
T3EE0 000:533.102 - 4.357ms returns TRUE
T3EE0 000:533.130 JLINK_ReadReg(R15 (PC))
T3EE0 000:533.146 - 0.021ms returns 0x20000000
T3EE0 000:533.165 JLINK_ClrBPEx(BPHandle = 0x00000003)
T3EE0 000:533.171 - 0.007ms returns 0x00
T3EE0 000:533.177 JLINK_ReadReg(R0)
T3EE0 000:533.194 - 0.019ms returns 0x00000000
T3EE0 000:539.695 JLINK_WriteMem(0x20000000, 0x1E0 Bytes, ...)
T3EE0 000:539.710   Data:  00 BE 0A E0 0D 78 2D 06 68 40 08 24 40 00 00 D3 ...
T3EE0 000:539.734   CPU_WriteMem(480 bytes @ 0x20000000)
T3EE0 000:542.984 - 3.306ms returns 0x1E0
T3EE0 000:543.043 JLINK_HasError()
T3EE0 000:543.052 JLINK_WriteReg(R0, 0x00000000)
T3EE0 000:543.061 - 0.011ms returns 0
T3EE0 000:543.066 JLINK_WriteReg(R1, 0x00B71B00)
T3EE0 000:543.071 - 0.006ms returns 0
T3EE0 000:543.076 JLINK_WriteReg(R2, 0x00000002)
T3EE0 000:543.080 - 0.006ms returns 0
T3EE0 000:543.085 JLINK_WriteReg(R3, 0x00000000)
T3EE0 000:543.090 - 0.006ms returns 0
T3EE0 000:543.095 JLINK_WriteReg(R4, 0x00000000)
T3EE0 000:543.100 - 0.006ms returns 0
T3EE0 000:543.105 JLINK_WriteReg(R5, 0x00000000)
T3EE0 000:543.109 - 0.006ms returns 0
T3EE0 000:543.114 JLINK_WriteReg(R6, 0x00000000)
T3EE0 000:543.119 - 0.006ms returns 0
T3EE0 000:543.124 JLINK_WriteReg(R7, 0x00000000)
T3EE0 000:543.128 - 0.006ms returns 0
T3EE0 000:543.133 JLINK_WriteReg(R8, 0x00000000)
T3EE0 000:543.138 - 0.006ms returns 0
T3EE0 000:543.143 JLINK_WriteReg(R9, 0x200001DC)
T3EE0 000:543.155 - 0.013ms returns 0
T3EE0 000:543.160 JLINK_WriteReg(R10, 0x00000000)
T3EE0 000:543.165 - 0.007ms returns 0
T3EE0 000:543.170 JLINK_WriteReg(R11, 0x00000000)
T3EE0 000:543.175 - 0.006ms returns 0
T3EE0 000:543.180 JLINK_WriteReg(R12, 0x00000000)
T3EE0 000:543.185 - 0.006ms returns 0
T3EE0 000:543.191 JLINK_WriteReg(R13 (SP), 0x20001000)
T3EE0 000:543.197 - 0.007ms returns 0
T3EE0 000:543.202 JLINK_WriteReg(R14, 0x20000001)
T3EE0 000:543.206 - 0.007ms returns 0
T3EE0 000:543.213 JLINK_WriteReg(R15 (PC), 0x20000040)
T3EE0 000:543.234 - 0.023ms returns 0
T3EE0 000:543.239 JLINK_WriteReg(XPSR, 0x01000000)
T3EE0 000:543.244 - 0.007ms returns 0
T3EE0 000:543.250 JLINK_WriteReg(MSP, 0x20001000)
T3EE0 000:543.255 - 0.007ms returns 0
T3EE0 000:543.260 JLINK_WriteReg(PSP, 0x20001000)
T3EE0 000:543.265 - 0.007ms returns 0
T3EE0 000:543.270 JLINK_WriteReg(CFBP, 0x00000000)
T3EE0 000:543.275 - 0.007ms returns 0
T3EE0 000:543.280 JLINK_SetBPEx(Addr = 0x20000000, Type = 0xFFFFFFF2)
T3EE0 000:543.290   CPU_ReadMem(2 bytes @ 0x20000000)
T3EE0 000:544.008 - 0.732ms returns 0x00000004
T3EE0 000:544.018 JLINK_Go()
T3EE0 000:544.026   CPU_WriteMem(2 bytes @ 0x20000000)
T3EE0 000:544.857   CPU_ReadMem(4 bytes @ 0xE0001000)
T3EE0 000:545.639   CPU_WriteMem(4 bytes @ 0xE0001000)
T3EE0 000:550.030 - 6.026ms
T3EE0 000:550.051 JLINK_IsHalted()
T3EE0 000:553.481   CPU_ReadMem(2 bytes @ 0x20000000)
T3EE0 000:554.237 - 4.191ms returns TRUE
T3EE0 000:554.248 JLINK_ReadReg(R15 (PC))
T3EE0 000:554.257 - 0.012ms returns 0x20000000
T3EE0 000:554.265 JLINK_ClrBPEx(BPHandle = 0x00000004)
T3EE0 000:554.271 - 0.009ms returns 0x00
T3EE0 000:554.279 JLINK_ReadReg(R0)
T3EE0 000:554.285 - 0.009ms returns 0x00000000
T3EE0 000:554.719 JLINK_WriteMem(0x200001E0, 0x200 Bytes, ...)
T3EE0 000:554.736   Data:  78 03 00 20 85 01 00 00 9F 01 00 00 A9 17 00 00 ...
T3EE0 000:554.753   CPU_WriteMem(512 bytes @ 0x200001E0)
T3EE0 000:558.236 - 3.539ms returns 0x200
T3EE0 000:558.343 JLINK_HasError()
T3EE0 000:558.360 JLINK_WriteReg(R0, 0x00000000)
T3EE0 000:558.375 - 0.018ms returns 0
T3EE0 000:558.385 JLINK_WriteReg(R1, 0x00000200)
T3EE0 000:558.394 - 0.013ms returns 0
T3EE0 000:558.404 JLINK_WriteReg(R2, 0x200001E0)
T3EE0 000:558.413 - 0.013ms returns 0
T3EE0 000:558.423 JLINK_WriteReg(R3, 0x00000000)
T3EE0 000:558.431 - 0.012ms returns 0
T3EE0 000:558.441 JLINK_WriteReg(R4, 0x00000000)
T3EE0 000:558.450 - 0.013ms returns 0
T3EE0 000:558.459 JLINK_WriteReg(R5, 0x00000000)
T3EE0 000:558.469 - 0.013ms returns 0
T3EE0 000:558.478 JLINK_WriteReg(R6, 0x00000000)
T3EE0 000:558.487 - 0.012ms returns 0
T3EE0 000:558.496 JLINK_WriteReg(R7, 0x00000000)
T3EE0 000:558.505 - 0.012ms returns 0
T3EE0 000:558.514 JLINK_WriteReg(R8, 0x00000000)
T3EE0 000:558.523 - 0.012ms returns 0
T3EE0 000:558.532 JLINK_WriteReg(R9, 0x200001DC)
T3EE0 000:558.550 - 0.022ms returns 0
T3EE0 000:558.560 JLINK_WriteReg(R10, 0x00000000)
T3EE0 000:558.569 - 0.013ms returns 0
T3EE0 000:558.579 JLINK_WriteReg(R11, 0x00000000)
T3EE0 000:558.588 - 0.013ms returns 0
T3EE0 000:558.598 JLINK_WriteReg(R12, 0x00000000)
T3EE0 000:558.607 - 0.013ms returns 0
T3EE0 000:558.617 JLINK_WriteReg(R13 (SP), 0x20001000)
T3EE0 000:558.627 - 0.014ms returns 0
T3EE0 000:558.636 JLINK_WriteReg(R14, 0x20000001)
T3EE0 000:558.646 - 0.013ms returns 0
T3EE0 000:558.655 JLINK_WriteReg(R15 (PC), 0x2000016A)
T3EE0 000:558.665 - 0.014ms returns 0
T3EE0 000:558.675 JLINK_WriteReg(XPSR, 0x01000000)
T3EE0 000:558.684 - 0.014ms returns 0
T3EE0 000:558.694 JLINK_WriteReg(MSP, 0x20001000)
T3EE0 000:558.703 - 0.013ms returns 0
T3EE0 000:558.713 JLINK_WriteReg(PSP, 0x20001000)
T3EE0 000:558.723 - 0.013ms returns 0
T3EE0 000:558.732 JLINK_WriteReg(CFBP, 0x00000000)
T3EE0 000:558.741 - 0.013ms returns 0
T3EE0 000:558.751 JLINK_SetBPEx(Addr = 0x20000000, Type = 0xFFFFFFF2)
T3EE0 000:558.761 - 0.014ms returns 0x00000005
T3EE0 000:558.770 JLINK_Go()
T3EE0 000:558.787   CPU_ReadMem(4 bytes @ 0xE0001000)
T3EE0 000:559.603   CPU_WriteMem(4 bytes @ 0xE0001000)
T3EE0 000:564.060 - 5.305ms
T3EE0 000:564.083 JLINK_IsHalted()
T3EE0 000:564.945 - 0.867ms returns FALSE
T3EE0 000:564.955 JLINK_HasError()
T3EE0 000:570.099 JLINK_IsHalted()
T3EE0 000:570.927 - 0.832ms returns FALSE
T3EE0 000:570.937 JLINK_HasError()
T3EE0 000:573.108 JLINK_IsHalted()
T3EE0 000:573.911 - 0.811ms returns FALSE
T3EE0 000:573.926 JLINK_HasError()
T3EE0 000:575.625 JLINK_IsHalted()
T3EE0 000:576.340 - 0.719ms returns FALSE
T3EE0 000:576.348 JLINK_HasError()
T3EE0 000:577.609 JLINK_IsHalted()
T3EE0 000:578.471 - 0.866ms returns FALSE
T3EE0 000:578.480 JLINK_HasError()
T3EE0 000:579.623 JLINK_IsHalted()
T3EE0 000:580.688 - 1.076ms returns FALSE
T3EE0 000:580.705 JLINK_HasError()
T3EE0 000:582.615 JLINK_IsHalted()
T3EE0 000:585.951   CPU_ReadMem(2 bytes @ 0x20000000)
T3EE0 000:586.702 - 4.094ms returns TRUE
T3EE0 000:586.721 JLINK_ReadReg(R15 (PC))
T3EE0 000:586.729 - 0.010ms returns 0x20000000
T3EE0 000:586.735 JLINK_ClrBPEx(BPHandle = 0x00000005)
T3EE0 000:586.753 - 0.020ms returns 0x00
T3EE0 000:586.760 JLINK_ReadReg(R0)
T3EE0 000:586.779 - 0.021ms returns 0x00000000
T3EE0 000:587.359 JLINK_WriteMem(0x200001E0, 0x200 Bytes, ...)
T3EE0 000:587.370   Data:  03 D0 69 46 00 20 00 F0 15 FD 1C BC 08 BC 04 B0 ...
T3EE0 000:587.385   CPU_WriteMem(512 bytes @ 0x200001E0)
T3EE0 000:590.858 - 3.507ms returns 0x200
T3EE0 000:590.875 JLINK_HasError()
T3EE0 000:590.885 JLINK_WriteReg(R0, 0x00000200)
T3EE0 000:590.898 - 0.016ms returns 0
T3EE0 000:590.909 JLINK_WriteReg(R1, 0x00000200)
T3EE0 000:590.917 - 0.012ms returns 0
T3EE0 000:590.927 JLINK_WriteReg(R2, 0x200001E0)
T3EE0 000:590.935 - 0.012ms returns 0
T3EE0 000:590.944 JLINK_WriteReg(R3, 0x00000000)
T3EE0 000:590.953 - 0.012ms returns 0
T3EE0 000:590.962 JLINK_WriteReg(R4, 0x00000000)
T3EE0 000:590.970 - 0.012ms returns 0
T3EE0 000:590.979 JLINK_WriteReg(R5, 0x00000000)
T3EE0 000:590.988 - 0.012ms returns 0
T3EE0 000:590.997 JLINK_WriteReg(R6, 0x00000000)
T3EE0 000:591.006 - 0.012ms returns 0
T3EE0 000:591.015 JLINK_WriteReg(R7, 0x00000000)
T3EE0 000:591.023 - 0.012ms returns 0
T3EE0 000:591.032 JLINK_WriteReg(R8, 0x00000000)
T3EE0 000:591.041 - 0.012ms returns 0
T3EE0 000:591.050 JLINK_WriteReg(R9, 0x200001DC)
T3EE0 000:591.058 - 0.012ms returns 0
T3EE0 000:591.068 JLINK_WriteReg(R10, 0x00000000)
T3EE0 000:591.076 - 0.012ms returns 0
T3EE0 000:591.085 JLINK_WriteReg(R11, 0x00000000)
T3EE0 000:591.094 - 0.012ms returns 0
T3EE0 000:591.103 JLINK_WriteReg(R12, 0x00000000)
T3EE0 000:591.112 - 0.012ms returns 0
T3EE0 000:591.121 JLINK_WriteReg(R13 (SP), 0x20001000)
T3EE0 000:591.131 - 0.014ms returns 0
T3EE0 000:591.140 JLINK_WriteReg(R14, 0x20000001)
T3EE0 000:591.149 - 0.012ms returns 0
T3EE0 000:591.158 JLINK_WriteReg(R15 (PC), 0x2000016A)
T3EE0 000:591.167 - 0.013ms returns 0
T3EE0 000:591.177 JLINK_WriteReg(XPSR, 0x01000000)
T3EE0 000:591.185 - 0.012ms returns 0
T3EE0 000:591.195 JLINK_WriteReg(MSP, 0x20001000)
T3EE0 000:591.203 - 0.012ms returns 0
T3EE0 000:591.213 JLINK_WriteReg(PSP, 0x20001000)
T3EE0 000:591.221 - 0.012ms returns 0
T3EE0 000:591.230 JLINK_WriteReg(CFBP, 0x00000000)
T3EE0 000:591.239 - 0.012ms returns 0
T3EE0 000:591.248 JLINK_SetBPEx(Addr = 0x20000000, Type = 0xFFFFFFF2)
T3EE0 000:591.258 - 0.014ms returns 0x00000006
T3EE0 000:591.268 JLINK_Go()
T3EE0 000:591.284   CPU_ReadMem(4 bytes @ 0xE0001000)
T3EE0 000:592.043   CPU_WriteMem(4 bytes @ 0xE0001000)
T3EE0 000:596.034 - 4.784ms
T3EE0 000:596.058 JLINK_IsHalted()
T3EE0 000:596.838 - 0.786ms returns FALSE
T3EE0 000:596.849 JLINK_HasError()
T3EE0 000:598.700 JLINK_IsHalted()
T3EE0 000:599.487 - 0.791ms returns FALSE
T3EE0 000:599.495 JLINK_HasError()
T3EE0 000:601.629 JLINK_IsHalted()
T3EE0 000:602.351 - 0.726ms returns FALSE
T3EE0 000:602.360 JLINK_HasError()
T3EE0 000:603.635 JLINK_IsHalted()
T3EE0 000:604.338 - 0.707ms returns FALSE
T3EE0 000:604.346 JLINK_HasError()
T3EE0 000:605.633 JLINK_IsHalted()
T3EE0 000:606.322 - 0.693ms returns FALSE
T3EE0 000:606.330 JLINK_HasError()
T3EE0 000:608.680 JLINK_IsHalted()
T3EE0 000:609.468 - 0.792ms returns FALSE
T3EE0 000:609.477 JLINK_HasError()
T3EE0 000:610.610 JLINK_IsHalted()
T3EE0 000:611.400 - 0.795ms returns FALSE
T3EE0 000:611.409 JLINK_HasError()
T3EE0 000:612.601 JLINK_IsHalted()
T3EE0 000:613.389 - 0.849ms returns FALSE
T3EE0 000:613.505 JLINK_HasError()
T3EE0 000:615.611 JLINK_IsHalted()
T3EE0 000:618.852   CPU_ReadMem(2 bytes @ 0x20000000)
T3EE0 000:619.620 - 4.015ms returns TRUE
T3EE0 000:619.632 JLINK_ReadReg(R15 (PC))
T3EE0 000:619.640 - 0.011ms returns 0x20000000
T3EE0 000:619.647 JLINK_ClrBPEx(BPHandle = 0x00000006)
T3EE0 000:619.653 - 0.008ms returns 0x00
T3EE0 000:619.659 JLINK_ReadReg(R0)
T3EE0 000:619.665 - 0.008ms returns 0x00000000
T3EE0 000:620.233 JLINK_WriteMem(0x200001E0, 0x200 Bytes, ...)
T3EE0 000:620.248   Data:  01 D3 94 46 3F E0 C3 09 8B 42 01 D3 CB 01 C0 1A ...
T3EE0 000:620.276   CPU_WriteMem(512 bytes @ 0x200001E0)
T3EE0 000:623.905 - 3.681ms returns 0x200
T3EE0 000:623.922 JLINK_HasError()
T3EE0 000:623.931 JLINK_WriteReg(R0, 0x00000400)
T3EE0 000:623.939 - 0.010ms returns 0
T3EE0 000:623.945 JLINK_WriteReg(R1, 0x00000200)
T3EE0 000:623.949 - 0.006ms returns 0
T3EE0 000:623.954 JLINK_WriteReg(R2, 0x200001E0)
T3EE0 000:623.959 - 0.006ms returns 0
T3EE0 000:623.964 JLINK_WriteReg(R3, 0x00000000)
T3EE0 000:623.969 - 0.006ms returns 0
T3EE0 000:623.974 JLINK_WriteReg(R4, 0x00000000)
T3EE0 000:623.978 - 0.006ms returns 0
T3EE0 000:623.983 JLINK_WriteReg(R5, 0x00000000)
T3EE0 000:623.988 - 0.006ms returns 0
T3EE0 000:623.993 JLINK_WriteReg(R6, 0x00000000)
T3EE0 000:623.997 - 0.006ms returns 0
T3EE0 000:624.002 JLINK_WriteReg(R7, 0x00000000)
T3EE0 000:624.007 - 0.007ms returns 0
T3EE0 000:624.012 JLINK_WriteReg(R8, 0x00000000)
T3EE0 000:624.017 - 0.006ms returns 0
T3EE0 000:624.022 JLINK_WriteReg(R9, 0x200001DC)
T3EE0 000:624.027 - 0.007ms returns 0
T3EE0 000:624.032 JLINK_WriteReg(R10, 0x00000000)
T3EE0 000:624.036 - 0.006ms returns 0
T3EE0 000:624.041 JLINK_WriteReg(R11, 0x00000000)
T3EE0 000:624.046 - 0.006ms returns 0
T3EE0 000:624.051 JLINK_WriteReg(R12, 0x00000000)
T3EE0 000:624.055 - 0.006ms returns 0
T3EE0 000:624.060 JLINK_WriteReg(R13 (SP), 0x20001000)
T3EE0 000:624.066 - 0.007ms returns 0
T3EE0 000:624.071 JLINK_WriteReg(R14, 0x20000001)
T3EE0 000:624.075 - 0.006ms returns 0
T3EE0 000:624.080 JLINK_WriteReg(R15 (PC), 0x2000016A)
T3EE0 000:624.085 - 0.007ms returns 0
T3EE0 000:624.090 JLINK_WriteReg(XPSR, 0x01000000)
T3EE0 000:624.095 - 0.007ms returns 0
T3EE0 000:624.100 JLINK_WriteReg(MSP, 0x20001000)
T3EE0 000:624.105 - 0.006ms returns 0
T3EE0 000:624.110 JLINK_WriteReg(PSP, 0x20001000)
T3EE0 000:624.114 - 0.006ms returns 0
T3EE0 000:624.119 JLINK_WriteReg(CFBP, 0x00000000)
T3EE0 000:624.124 - 0.006ms returns 0
T3EE0 000:624.129 JLINK_SetBPEx(Addr = 0x20000000, Type = 0xFFFFFFF2)
T3EE0 000:624.135 - 0.007ms returns 0x00000007
T3EE0 000:624.140 JLINK_Go()
T3EE0 000:624.150   CPU_ReadMem(4 bytes @ 0xE0001000)
T3EE0 000:624.928   CPU_WriteMem(4 bytes @ 0xE0001000)
T3EE0 000:629.032 - 4.907ms
T3EE0 000:629.053 JLINK_IsHalted()
T3EE0 000:629.813 - 0.764ms returns FALSE
T3EE0 000:629.822 JLINK_HasError()
T3EE0 000:631.619 JLINK_IsHalted()
T3EE0 000:632.343 - 0.727ms returns FALSE
T3EE0 000:632.350 JLINK_HasError()
T3EE0 000:633.622 JLINK_IsHalted()
T3EE0 000:634.322 - 0.703ms returns FALSE
T3EE0 000:634.329 JLINK_HasError()
T3EE0 000:635.622 JLINK_IsHalted()
T3EE0 000:636.343 - 0.725ms returns FALSE
T3EE0 000:636.351 JLINK_HasError()
T3EE0 000:637.620 JLINK_IsHalted()
T3EE0 000:638.455 - 0.840ms returns FALSE
T3EE0 000:638.464 JLINK_HasError()
T3EE0 000:640.628 JLINK_IsHalted()
T3EE0 000:641.623 - 0.999ms returns FALSE
T3EE0 000:641.633 JLINK_HasError()
T3EE0 000:643.618 JLINK_IsHalted()
T3EE0 000:644.389 - 0.776ms returns FALSE
T3EE0 000:644.398 JLINK_HasError()
T3EE0 000:645.606 JLINK_IsHalted()
T3EE0 000:646.502 - 0.930ms returns FALSE
T3EE0 000:646.559 JLINK_HasError()
T3EE0 000:647.705 JLINK_IsHalted()
T3EE0 000:651.183   CPU_ReadMem(2 bytes @ 0x20000000)
T3EE0 000:651.927 - 4.226ms returns TRUE
T3EE0 000:651.936 JLINK_ReadReg(R15 (PC))
T3EE0 000:651.944 - 0.009ms returns 0x20000000
T3EE0 000:651.950 JLINK_ClrBPEx(BPHandle = 0x00000007)
T3EE0 000:651.955 - 0.007ms returns 0x00
T3EE0 000:651.960 JLINK_ReadReg(R0)
T3EE0 000:651.965 - 0.007ms returns 0x00000000
T3EE0 000:652.482 JLINK_WriteMem(0x200001E0, 0x200 Bytes, ...)
T3EE0 000:652.494   Data:  CC 19 9D 40 28 18 31 46 61 41 0C 0D 27 D1 61 44 ...
T3EE0 000:652.510   CPU_WriteMem(512 bytes @ 0x200001E0)
T3EE0 000:656.132 - 3.665ms returns 0x200
T3EE0 000:656.159 JLINK_HasError()
T3EE0 000:656.172 JLINK_WriteReg(R0, 0x00000600)
T3EE0 000:656.187 - 0.020ms returns 0
T3EE0 000:656.198 JLINK_WriteReg(R1, 0x00000200)
T3EE0 000:656.207 - 0.013ms returns 0
T3EE0 000:656.217 JLINK_WriteReg(R2, 0x200001E0)
T3EE0 000:656.227 - 0.013ms returns 0
T3EE0 000:656.237 JLINK_WriteReg(R3, 0x00000000)
T3EE0 000:656.246 - 0.013ms returns 0
T3EE0 000:656.256 JLINK_WriteReg(R4, 0x00000000)
T3EE0 000:656.265 - 0.013ms returns 0
T3EE0 000:656.276 JLINK_WriteReg(R5, 0x00000000)
T3EE0 000:656.285 - 0.013ms returns 0
T3EE0 000:656.295 JLINK_WriteReg(R6, 0x00000000)
T3EE0 000:656.304 - 0.013ms returns 0
T3EE0 000:656.314 JLINK_WriteReg(R7, 0x00000000)
T3EE0 000:656.323 - 0.013ms returns 0
T3EE0 000:656.334 JLINK_WriteReg(R8, 0x00000000)
T3EE0 000:656.343 - 0.013ms returns 0
T3EE0 000:656.353 JLINK_WriteReg(R9, 0x200001DC)
T3EE0 000:656.362 - 0.013ms returns 0
T3EE0 000:656.372 JLINK_WriteReg(R10, 0x00000000)
T3EE0 000:656.381 - 0.013ms returns 0
T3EE0 000:656.391 JLINK_WriteReg(R11, 0x00000000)
T3EE0 000:656.400 - 0.013ms returns 0
T3EE0 000:656.410 JLINK_WriteReg(R12, 0x00000000)
T3EE0 000:656.419 - 0.013ms returns 0
T3EE0 000:656.429 JLINK_WriteReg(R13 (SP), 0x20001000)
T3EE0 000:656.439 - 0.014ms returns 0
T3EE0 000:656.449 JLINK_WriteReg(R14, 0x20000001)
T3EE0 000:656.459 - 0.013ms returns 0
T3EE0 000:656.469 JLINK_WriteReg(R15 (PC), 0x2000016A)
T3EE0 000:656.478 - 0.013ms returns 0
T3EE0 000:656.488 JLINK_WriteReg(XPSR, 0x01000000)
T3EE0 000:656.497 - 0.013ms returns 0
T3EE0 000:656.507 JLINK_WriteReg(MSP, 0x20001000)
T3EE0 000:656.516 - 0.013ms returns 0
T3EE0 000:656.526 JLINK_WriteReg(PSP, 0x20001000)
T3EE0 000:656.535 - 0.013ms returns 0
T3EE0 000:656.545 JLINK_WriteReg(CFBP, 0x00000000)
T3EE0 000:656.554 - 0.013ms returns 0
T3EE0 000:656.565 JLINK_SetBPEx(Addr = 0x20000000, Type = 0xFFFFFFF2)
T3EE0 000:656.576 - 0.015ms returns 0x00000008
T3EE0 000:656.586 JLINK_Go()
T3EE0 000:656.604   CPU_ReadMem(4 bytes @ 0xE0001000)
T3EE0 000:657.300   CPU_WriteMem(4 bytes @ 0xE0001000)
T3EE0 000:661.343 - 4.776ms
T3EE0 000:661.374 JLINK_IsHalted()
T3EE0 000:662.111 - 0.743ms returns FALSE
T3EE0 000:662.123 JLINK_HasError()
T3EE0 000:663.637 JLINK_IsHalted()
T3EE0 000:664.368 - 0.736ms returns FALSE
T3EE0 000:664.381 JLINK_HasError()
T3EE0 000:665.638 JLINK_IsHalted()
T3EE0 000:666.321 - 0.688ms returns FALSE
T3EE0 000:666.343 JLINK_HasError()
T3EE0 000:667.633 JLINK_IsHalted()
T3EE0 000:668.347 - 0.717ms returns FALSE
T3EE0 000:668.355 JLINK_HasError()
T3EE0 000:669.663 JLINK_IsHalted()
T3EE0 000:670.370 - 0.711ms returns FALSE
T3EE0 000:670.379 JLINK_HasError()
T3EE0 000:672.644 JLINK_IsHalted()
T3EE0 000:673.385 - 0.745ms returns FALSE
T3EE0 000:673.394 JLINK_HasError()
T3EE0 000:674.623 JLINK_IsHalted()
T3EE0 000:675.324 - 0.705ms returns FALSE
T3EE0 000:675.332 JLINK_HasError()
T3EE0 000:676.678 JLINK_IsHalted()
T3EE0 000:677.363 - 0.688ms returns FALSE
T3EE0 000:677.370 JLINK_HasError()
T3EE0 000:678.673 JLINK_IsHalted()
T3EE0 000:681.921   CPU_ReadMem(2 bytes @ 0x20000000)
T3EE0 000:682.614 - 3.945ms returns TRUE
T3EE0 000:682.624 JLINK_ReadReg(R15 (PC))
T3EE0 000:682.632 - 0.010ms returns 0x20000000
T3EE0 000:682.637 JLINK_ClrBPEx(BPHandle = 0x00000008)
T3EE0 000:682.643 - 0.007ms returns 0x00
T3EE0 000:682.649 JLINK_ReadReg(R0)
T3EE0 000:682.654 - 0.007ms returns 0x00000000
T3EE0 000:683.204 JLINK_WriteMem(0x200001E0, 0x200 Bytes, ...)
T3EE0 000:683.232   Data:  2C E0 22 E0 05 46 F5 40 15 43 98 40 CA 1A E1 07 ...
T3EE0 000:683.249   CPU_WriteMem(512 bytes @ 0x200001E0)
T3EE0 000:686.695 - 3.502ms returns 0x200
T3EE0 000:686.713 JLINK_HasError()
T3EE0 000:686.721 JLINK_WriteReg(R0, 0x00000800)
T3EE0 000:686.732 - 0.013ms returns 0
T3EE0 000:686.746 JLINK_WriteReg(R1, 0x00000200)
T3EE0 000:686.751 - 0.007ms returns 0
T3EE0 000:686.756 JLINK_WriteReg(R2, 0x200001E0)
T3EE0 000:686.761 - 0.007ms returns 0
T3EE0 000:686.766 JLINK_WriteReg(R3, 0x00000000)
T3EE0 000:686.771 - 0.007ms returns 0
T3EE0 000:686.776 JLINK_WriteReg(R4, 0x00000000)
T3EE0 000:686.781 - 0.006ms returns 0
T3EE0 000:686.786 JLINK_WriteReg(R5, 0x00000000)
T3EE0 000:686.790 - 0.006ms returns 0
T3EE0 000:686.795 JLINK_WriteReg(R6, 0x00000000)
T3EE0 000:686.800 - 0.006ms returns 0
T3EE0 000:686.805 JLINK_WriteReg(R7, 0x00000000)
T3EE0 000:686.809 - 0.006ms returns 0
T3EE0 000:686.814 JLINK_WriteReg(R8, 0x00000000)
T3EE0 000:686.819 - 0.006ms returns 0
T3EE0 000:686.824 JLINK_WriteReg(R9, 0x200001DC)
T3EE0 000:686.828 - 0.006ms returns 0
T3EE0 000:686.833 JLINK_WriteReg(R10, 0x00000000)
T3EE0 000:686.838 - 0.006ms returns 0
T3EE0 000:686.843 JLINK_WriteReg(R11, 0x00000000)
T3EE0 000:686.848 - 0.007ms returns 0
T3EE0 000:686.853 JLINK_WriteReg(R12, 0x00000000)
T3EE0 000:686.857 - 0.006ms returns 0
T3EE0 000:686.862 JLINK_WriteReg(R13 (SP), 0x20001000)
T3EE0 000:686.868 - 0.007ms returns 0
T3EE0 000:686.872 JLINK_WriteReg(R14, 0x20000001)
T3EE0 000:686.877 - 0.006ms returns 0
T3EE0 000:686.882 JLINK_WriteReg(R15 (PC), 0x2000016A)
T3EE0 000:686.887 - 0.007ms returns 0
T3EE0 000:686.892 JLINK_WriteReg(XPSR, 0x01000000)
T3EE0 000:686.897 - 0.006ms returns 0
T3EE0 000:686.902 JLINK_WriteReg(MSP, 0x20001000)
T3EE0 000:686.907 - 0.006ms returns 0
T3EE0 000:686.912 JLINK_WriteReg(PSP, 0x20001000)
T3EE0 000:686.916 - 0.006ms returns 0
T3EE0 000:686.921 JLINK_WriteReg(CFBP, 0x00000000)
T3EE0 000:686.926 - 0.006ms returns 0
T3EE0 000:686.931 JLINK_SetBPEx(Addr = 0x20000000, Type = 0xFFFFFFF2)
T3EE0 000:686.937 - 0.008ms returns 0x00000009
T3EE0 000:686.942 JLINK_Go()
T3EE0 000:686.953   CPU_ReadMem(4 bytes @ 0xE0001000)
T3EE0 000:687.641   CPU_WriteMem(4 bytes @ 0xE0001000)
T3EE0 000:691.534 - 4.595ms
T3EE0 000:691.552 JLINK_IsHalted()
T3EE0 000:692.389 - 0.841ms returns FALSE
T3EE0 000:692.401 JLINK_HasError()
T3EE0 000:693.696 JLINK_IsHalted()
T3EE0 000:694.408 - 0.716ms returns FALSE
T3EE0 000:694.416 JLINK_HasError()
T3EE0 000:695.691 JLINK_IsHalted()
T3EE0 000:696.425 - 0.740ms returns FALSE
T3EE0 000:696.436 JLINK_HasError()
T3EE0 000:697.675 JLINK_IsHalted()
T3EE0 000:698.419 - 0.757ms returns FALSE
T3EE0 000:698.435 JLINK_HasError()
T3EE0 000:699.677 JLINK_IsHalted()
T3EE0 000:700.413 - 0.740ms returns FALSE
T3EE0 000:700.421 JLINK_HasError()
T3EE0 000:701.680 JLINK_IsHalted()
T3EE0 000:702.381 - 0.705ms returns FALSE
T3EE0 000:702.389 JLINK_HasError()
T3EE0 000:703.677 JLINK_IsHalted()
T3EE0 000:704.447 - 0.774ms returns FALSE
T3EE0 000:704.455 JLINK_HasError()
T3EE0 000:705.673 JLINK_IsHalted()
T3EE0 000:706.382 - 0.713ms returns FALSE
T3EE0 000:706.390 JLINK_HasError()
T3EE0 000:707.670 JLINK_IsHalted()
T3EE0 000:708.658 - 0.994ms returns FALSE
T3EE0 000:708.668 JLINK_HasError()
T3EE0 000:710.667 JLINK_IsHalted()
T3EE0 000:714.059   CPU_ReadMem(2 bytes @ 0x20000000)
T3EE0 000:714.996 - 4.334ms returns TRUE
T3EE0 000:715.010 JLINK_ReadReg(R15 (PC))
T3EE0 000:715.019 - 0.011ms returns 0x20000000
T3EE0 000:715.025 JLINK_ClrBPEx(BPHandle = 0x00000009)
T3EE0 000:715.031 - 0.008ms returns 0x00
T3EE0 000:715.038 JLINK_ReadReg(R0)
T3EE0 000:715.044 - 0.007ms returns 0x00000000
T3EE0 000:715.605 JLINK_WriteMem(0x200001E0, 0x200 Bytes, ...)
T3EE0 000:715.619   Data:  20 18 00 2B 07 D0 5B 00 C9 18 04 D3 40 1C 00 29 ...
T3EE0 000:715.635   CPU_WriteMem(512 bytes @ 0x200001E0)
T3EE0 000:718.983 - 3.388ms returns 0x200
T3EE0 000:719.016 JLINK_HasError()
T3EE0 000:719.079 JLINK_WriteReg(R0, 0x00000A00)
T3EE0 000:719.098 - 0.024ms returns 0
T3EE0 000:719.109 JLINK_WriteReg(R1, 0x00000200)
T3EE0 000:719.117 - 0.012ms returns 0
T3EE0 000:719.126 JLINK_WriteReg(R2, 0x200001E0)
T3EE0 000:719.134 - 0.011ms returns 0
T3EE0 000:719.142 JLINK_WriteReg(R3, 0x00000000)
T3EE0 000:719.150 - 0.011ms returns 0
T3EE0 000:719.159 JLINK_WriteReg(R4, 0x00000000)
T3EE0 000:719.167 - 0.011ms returns 0
T3EE0 000:719.176 JLINK_WriteReg(R5, 0x00000000)
T3EE0 000:719.184 - 0.012ms returns 0
T3EE0 000:719.194 JLINK_WriteReg(R6, 0x00000000)
T3EE0 000:719.202 - 0.012ms returns 0
T3EE0 000:719.211 JLINK_WriteReg(R7, 0x00000000)
T3EE0 000:719.219 - 0.012ms returns 0
T3EE0 000:719.229 JLINK_WriteReg(R8, 0x00000000)
T3EE0 000:719.237 - 0.011ms returns 0
T3EE0 000:719.245 JLINK_WriteReg(R9, 0x200001DC)
T3EE0 000:719.254 - 0.012ms returns 0
T3EE0 000:719.263 JLINK_WriteReg(R10, 0x00000000)
T3EE0 000:719.270 - 0.011ms returns 0
T3EE0 000:719.279 JLINK_WriteReg(R11, 0x00000000)
T3EE0 000:719.287 - 0.011ms returns 0
T3EE0 000:719.296 JLINK_WriteReg(R12, 0x00000000)
T3EE0 000:719.303 - 0.011ms returns 0
T3EE0 000:719.312 JLINK_WriteReg(R13 (SP), 0x20001000)
T3EE0 000:719.320 - 0.012ms returns 0
T3EE0 000:719.330 JLINK_WriteReg(R14, 0x20000001)
T3EE0 000:719.338 - 0.011ms returns 0
T3EE0 000:719.346 JLINK_WriteReg(R15 (PC), 0x2000016A)
T3EE0 000:719.354 - 0.011ms returns 0
T3EE0 000:719.363 JLINK_WriteReg(XPSR, 0x01000000)
T3EE0 000:719.370 - 0.009ms returns 0
T3EE0 000:719.375 JLINK_WriteReg(MSP, 0x20001000)
T3EE0 000:719.380 - 0.007ms returns 0
T3EE0 000:719.385 JLINK_WriteReg(PSP, 0x20001000)
T3EE0 000:719.390 - 0.007ms returns 0
T3EE0 000:719.395 JLINK_WriteReg(CFBP, 0x00000000)
T3EE0 000:719.400 - 0.007ms returns 0
T3EE0 000:719.405 JLINK_SetBPEx(Addr = 0x20000000, Type = 0xFFFFFFF2)
T3EE0 000:719.411 - 0.008ms returns 0x0000000A
T3EE0 000:719.417 JLINK_Go()
T3EE0 000:719.427   CPU_ReadMem(4 bytes @ 0xE0001000)
T3EE0 000:720.164   CPU_WriteMem(4 bytes @ 0xE0001000)
T3EE0 000:724.633 - 5.223ms
T3EE0 000:724.646 JLINK_IsHalted()
T3EE0 000:725.511 - 0.871ms returns FALSE
T3EE0 000:725.522 JLINK_HasError()
T3EE0 000:726.676 JLINK_IsHalted()
T3EE0 000:727.509 - 0.836ms returns FALSE
T3EE0 000:727.516 JLINK_HasError()
T3EE0 000:728.652 JLINK_IsHalted()
T3EE0 000:729.390 - 0.742ms returns FALSE
T3EE0 000:729.398 JLINK_HasError()
T3EE0 000:730.670 JLINK_IsHalted()
T3EE0 000:731.508 - 0.842ms returns FALSE
T3EE0 000:731.516 JLINK_HasError()
T3EE0 000:732.753 JLINK_IsHalted()
T3EE0 000:733.878 - 1.144ms returns FALSE
T3EE0 000:733.908 JLINK_HasError()
T3EE0 000:736.667 JLINK_IsHalted()
T3EE0 000:737.388 - 0.724ms returns FALSE
T3EE0 000:737.395 JLINK_HasError()
T3EE0 000:738.670 JLINK_IsHalted()
T3EE0 000:739.356 - 0.689ms returns FALSE
T3EE0 000:739.363 JLINK_HasError()
T3EE0 000:740.665 JLINK_IsHalted()
T3EE0 000:741.446 - 0.785ms returns FALSE
T3EE0 000:741.453 JLINK_HasError()
T3EE0 000:742.666 JLINK_IsHalted()
T3EE0 000:746.056   CPU_ReadMem(2 bytes @ 0x20000000)
T3EE0 000:747.166 - 4.529ms returns TRUE
T3EE0 000:747.226 JLINK_ReadReg(R15 (PC))
T3EE0 000:747.240 - 0.016ms returns 0x20000000
T3EE0 000:747.247 JLINK_ClrBPEx(BPHandle = 0x0000000A)
T3EE0 000:747.254 - 0.011ms returns 0x00
T3EE0 000:747.264 JLINK_ReadReg(R0)
T3EE0 000:747.293 - 0.033ms returns 0x00000000
T3EE0 000:748.110 JLINK_WriteMem(0x200001E0, 0x200 Bytes, ...)
T3EE0 000:748.129   Data:  01 20 FB E7 01 69 4A 1C 02 61 08 78 70 47 00 B5 ...
T3EE0 000:748.166   CPU_WriteMem(512 bytes @ 0x200001E0)
T3EE0 000:751.574 - 3.479ms returns 0x200
T3EE0 000:751.601 JLINK_HasError()
T3EE0 000:751.615 JLINK_WriteReg(R0, 0x00000C00)
T3EE0 000:751.631 - 0.020ms returns 0
T3EE0 000:751.643 JLINK_WriteReg(R1, 0x00000200)
T3EE0 000:751.653 - 0.015ms returns 0
T3EE0 000:751.665 JLINK_WriteReg(R2, 0x200001E0)
T3EE0 000:751.676 - 0.015ms returns 0
T3EE0 000:751.687 JLINK_WriteReg(R3, 0x00000000)
T3EE0 000:751.698 - 0.015ms returns 0
T3EE0 000:751.709 JLINK_WriteReg(R4, 0x00000000)
T3EE0 000:751.720 - 0.021ms returns 0
T3EE0 000:751.741 JLINK_WriteReg(R5, 0x00000000)
T3EE0 000:751.752 - 0.015ms returns 0
T3EE0 000:751.763 JLINK_WriteReg(R6, 0x00000000)
T3EE0 000:751.774 - 0.015ms returns 0
T3EE0 000:751.785 JLINK_WriteReg(R7, 0x00000000)
T3EE0 000:751.796 - 0.015ms returns 0
T3EE0 000:751.807 JLINK_WriteReg(R8, 0x00000000)
T3EE0 000:751.818 - 0.015ms returns 0
T3EE0 000:751.829 JLINK_WriteReg(R9, 0x200001DC)
T3EE0 000:751.840 - 0.015ms returns 0
T3EE0 000:751.851 JLINK_WriteReg(R10, 0x00000000)
T3EE0 000:751.862 - 0.015ms returns 0
T3EE0 000:751.873 JLINK_WriteReg(R11, 0x00000000)
T3EE0 000:751.884 - 0.015ms returns 0
T3EE0 000:751.896 JLINK_WriteReg(R12, 0x00000000)
T3EE0 000:751.907 - 0.015ms returns 0
T3EE0 000:751.916 JLINK_WriteReg(R13 (SP), 0x20001000)
T3EE0 000:751.922 - 0.007ms returns 0
T3EE0 000:751.927 JLINK_WriteReg(R14, 0x20000001)
T3EE0 000:751.931 - 0.006ms returns 0
T3EE0 000:751.936 JLINK_WriteReg(R15 (PC), 0x2000016A)
T3EE0 000:751.942 - 0.007ms returns 0
T3EE0 000:751.946 JLINK_WriteReg(XPSR, 0x01000000)
T3EE0 000:751.951 - 0.007ms returns 0
T3EE0 000:751.956 JLINK_WriteReg(MSP, 0x20001000)
T3EE0 000:751.961 - 0.006ms returns 0
T3EE0 000:751.966 JLINK_WriteReg(PSP, 0x20001000)
T3EE0 000:751.970 - 0.006ms returns 0
T3EE0 000:751.975 JLINK_WriteReg(CFBP, 0x00000000)
T3EE0 000:751.980 - 0.006ms returns 0
T3EE0 000:751.985 JLINK_SetBPEx(Addr = 0x20000000, Type = 0xFFFFFFF2)
T3EE0 000:751.991 - 0.008ms returns 0x0000000B
T3EE0 000:751.996 JLINK_Go()
T3EE0 000:752.008   CPU_ReadMem(4 bytes @ 0xE0001000)
T3EE0 000:752.806   CPU_WriteMem(4 bytes @ 0xE0001000)
T3EE0 000:757.144 - 5.155ms
T3EE0 000:757.156 JLINK_IsHalted()
T3EE0 000:757.949 - 0.796ms returns FALSE
T3EE0 000:757.957 JLINK_HasError()
T3EE0 000:760.748 JLINK_IsHalted()
T3EE0 000:761.541 - 0.818ms returns FALSE
T3EE0 000:761.580 JLINK_HasError()
T3EE0 000:762.687 JLINK_IsHalted()
T3EE0 000:763.480 - 0.809ms returns FALSE
T3EE0 000:763.503 JLINK_HasError()
T3EE0 000:764.671 JLINK_IsHalted()
T3EE0 000:765.471 - 0.802ms returns FALSE
T3EE0 000:765.478 JLINK_HasError()
T3EE0 000:766.671 JLINK_IsHalted()
T3EE0 000:767.431 - 0.763ms returns FALSE
T3EE0 000:767.438 JLINK_HasError()
T3EE0 000:768.688 JLINK_IsHalted()
T3EE0 000:769.488 - 0.806ms returns FALSE
T3EE0 000:769.502 JLINK_HasError()
T3EE0 000:770.673 JLINK_IsHalted()
T3EE0 000:771.465 - 0.795ms returns FALSE
T3EE0 000:771.473 JLINK_HasError()
T3EE0 000:772.678 JLINK_IsHalted()
T3EE0 000:773.478 - 0.803ms returns FALSE
T3EE0 000:773.492 JLINK_HasError()
T3EE0 000:774.679 JLINK_IsHalted()
T3EE0 000:778.075   CPU_ReadMem(2 bytes @ 0x20000000)
T3EE0 000:779.183 - 4.528ms returns TRUE
T3EE0 000:779.234 JLINK_ReadReg(R15 (PC))
T3EE0 000:779.251 - 0.021ms returns 0x20000000
T3EE0 000:779.260 JLINK_ClrBPEx(BPHandle = 0x0000000B)
T3EE0 000:779.269 - 0.012ms returns 0x00
T3EE0 000:779.279 JLINK_ReadReg(R0)
T3EE0 000:779.287 - 0.012ms returns 0x00000000
T3EE0 000:780.277 JLINK_WriteMem(0x200001E0, 0x200 Bytes, ...)
T3EE0 000:780.296   Data:  88 42 01 D3 00 20 C0 43 70 47 10 B5 04 46 C0 46 ...
T3EE0 000:780.317   CPU_WriteMem(512 bytes @ 0x200001E0)
T3EE0 000:783.743 - 3.485ms returns 0x200
T3EE0 000:783.774 JLINK_HasError()
T3EE0 000:783.786 JLINK_WriteReg(R0, 0x00000E00)
T3EE0 000:783.803 - 0.020ms returns 0
T3EE0 000:783.813 JLINK_WriteReg(R1, 0x00000200)
T3EE0 000:783.822 - 0.013ms returns 0
T3EE0 000:783.832 JLINK_WriteReg(R2, 0x200001E0)
T3EE0 000:783.841 - 0.013ms returns 0
T3EE0 000:783.851 JLINK_WriteReg(R3, 0x00000000)
T3EE0 000:783.860 - 0.013ms returns 0
T3EE0 000:783.869 JLINK_WriteReg(R4, 0x00000000)
T3EE0 000:783.878 - 0.013ms returns 0
T3EE0 000:783.888 JLINK_WriteReg(R5, 0x00000000)
T3EE0 000:783.897 - 0.013ms returns 0
T3EE0 000:783.906 JLINK_WriteReg(R6, 0x00000000)
T3EE0 000:783.915 - 0.013ms returns 0
T3EE0 000:783.925 JLINK_WriteReg(R7, 0x00000000)
T3EE0 000:783.934 - 0.013ms returns 0
T3EE0 000:783.943 JLINK_WriteReg(R8, 0x00000000)
T3EE0 000:783.952 - 0.013ms returns 0
T3EE0 000:783.962 JLINK_WriteReg(R9, 0x200001DC)
T3EE0 000:783.976 - 0.020ms returns 0
T3EE0 000:783.988 JLINK_WriteReg(R10, 0x00000000)
T3EE0 000:783.997 - 0.013ms returns 0
T3EE0 000:784.006 JLINK_WriteReg(R11, 0x00000000)
T3EE0 000:784.015 - 0.012ms returns 0
T3EE0 000:784.025 JLINK_WriteReg(R12, 0x00000000)
T3EE0 000:784.034 - 0.013ms returns 0
T3EE0 000:784.043 JLINK_WriteReg(R13 (SP), 0x20001000)
T3EE0 000:784.053 - 0.014ms returns 0
T3EE0 000:784.063 JLINK_WriteReg(R14, 0x20000001)
T3EE0 000:784.072 - 0.013ms returns 0
T3EE0 000:784.082 JLINK_WriteReg(R15 (PC), 0x2000016A)
T3EE0 000:784.092 - 0.013ms returns 0
T3EE0 000:784.101 JLINK_WriteReg(XPSR, 0x01000000)
T3EE0 000:784.110 - 0.013ms returns 0
T3EE0 000:784.120 JLINK_WriteReg(MSP, 0x20001000)
T3EE0 000:784.129 - 0.013ms returns 0
T3EE0 000:784.138 JLINK_WriteReg(PSP, 0x20001000)
T3EE0 000:784.147 - 0.013ms returns 0
T3EE0 000:784.157 JLINK_WriteReg(CFBP, 0x00000000)
T3EE0 000:784.166 - 0.013ms returns 0
T3EE0 000:784.179 JLINK_SetBPEx(Addr = 0x20000000, Type = 0xFFFFFFF2)
T3EE0 000:784.185 - 0.008ms returns 0x0000000C
T3EE0 000:784.190 JLINK_Go()
T3EE0 000:784.202   CPU_ReadMem(4 bytes @ 0xE0001000)
T3EE0 000:785.011   CPU_WriteMem(4 bytes @ 0xE0001000)
T3EE0 000:789.137 - 4.952ms
T3EE0 000:789.147 JLINK_IsHalted()
T3EE0 000:789.943 - 0.799ms returns FALSE
T3EE0 000:789.960 JLINK_HasError()
T3EE0 000:791.602 JLINK_IsHalted()
T3EE0 000:792.472 - 0.875ms returns FALSE
T3EE0 000:792.482 JLINK_HasError()
T3EE0 000:794.213 JLINK_IsHalted()
T3EE0 000:795.108 - 0.905ms returns FALSE
T3EE0 000:795.125 JLINK_HasError()
T3EE0 000:796.226 JLINK_IsHalted()
T3EE0 000:796.951 - 0.729ms returns FALSE
T3EE0 000:796.958 JLINK_HasError()
T3EE0 000:798.209 JLINK_IsHalted()
T3EE0 000:799.069 - 0.864ms returns FALSE
T3EE0 000:799.082 JLINK_HasError()
T3EE0 000:800.208 JLINK_IsHalted()
T3EE0 000:800.995 - 0.790ms returns FALSE
T3EE0 000:801.003 JLINK_HasError()
